Time [s],Value,Parity Error,Framing Error
9.130497083333333,0x00,,Error
36.938073666666668,0x55,,
36.939115999999999,0x01,,
36.940158250000003,0x0C,,
36.941200500000001,0x00,,
36.942242833333331,0xFE,,
36.943389333333336,0x10,,
36.944431666666667,0x21,,
36.945473916666664,0xC2,,
36.946516250000002,0x00,,
36.947558500000000,0x00,,
36.948600833333330,0x00,,
36.949643083333335,0x04,,
36.950685333333332,0x50,,
36.951727666666663,0x03,,
36.952769916666668,0xFF,,
36.954020666666665,0xF8,,
36.955167250000002,0x7F,,
36.956209500000000,0xF9,,
36.963830500000000,0x01,,
36.964874666666667,0x12,,
36.965918583333334,0x00,,
36.966962500000001,0x10,,
36.968006416666668,0x21,,
36.969050333333335,0xFE,,
36.970094250000002,0x86,,
36.971138166666670,0x00,,
36.972182083333337,0x00,,
36.973225999999997,0x00,,
36.974269916666664,0x0A,,
36.975313833333331,0x50,,
36.976357833333331,0x03,,
36.977401749999999,0x00,,
36.978445666666666,0x00,,
36.979489583333333,0xFF,,
36.980533500000000,0xF8,,
36.981577416666667,0x00,,
36.982621333333334,0x00,,
36.983665250000001,0x00,,
36.984709166666669,0x09,,
36.985753083333336,0xD4,,
36.986797000000003,0x66,,
36.994461583333333,0x55,,
36.995503833333331,0x01,,
36.996650416666668,0x0A,,
36.997901166666665,0x00,,
36.998943416666670,0xFE,,
36.999985666666667,0x10,,
37.001027999999998,0x21,,
37.002070250000003,0xC2,,
37.003112583333333,0x00,,
37.004154833333331,0x10,,
37.005197166666669,0x21,,
37.006239416666666,0x00,,
37.007281749999997,0x02,,
37.008324000000002,0x10,,
37.009366333333332,0x30,,
37.010408583333330,0x02,,
37.011450916666668,0x7A,,
37.012493166666665,0x65,,
37.019784749999999,0x01,,
37.020828916666666,0x26,,
37.021872833333333,0x00,,
37.022916750000000,0x10,,
37.023960750000001,0x21,,
37.025004666666668,0xFE,,
37.026048583333335,0x86,,
37.027092500000002,0x00,,
37.028136416666669,0x10,,
37.029180333333336,0x21,,
37.030224250000003,0x00,,
37.031268166666663,0x1E,,
37.032312083333331,0x10,,
37.033355999999998,0x30,,
37.034399916666665,0x02,,
37.035443833333332,0x00,,
37.036487833333332,0x00,,
37.037531749999999,0x10,,
37.038575666666667,0x21,,
37.039619583333334,0x0F,,
37.040663500000001,0x06,,
37.041707416666668,0x00,,
37.042751333333335,0x2A,,
37.043795250000002,0xF8,,
37.044839166666669,0x23,,
37.045883083333337,0x28,,
37.046926999999997,0x03,,
37.047970916666664,0xE8,,
37.049014916666664,0x46,,
37.050058833333331,0x55,,
37.051102749999998,0x10,,
37.052146666666665,0x25,,
37.053190583333333,0x06,,
37.054234500000000,0x04,,
37.055278416666667,0x02,,
37.056322333333334,0x00,,
37.057366250000001,0x00,,
37.058410166666668,0x00,,
37.059454083333335,0x00,,
37.060498000000003,0x00,,
37.061542000000003,0x02,,
37.062585916666670,0x00,,
37.063629833333330,0x00,,
37.064673749999997,0x18,,
37.065717666666664,0x00,,
37.066761583333331,0x98,,
37.067805499999999,0x70,,
37.075760250000002,0x55,,
37.076802499999999,0x01,,
37.077844833333330,0x0A,,
37.078887083333335,0x00,,
37.079929416666666,0xFE,,
37.080971666666670,0x10,,
37.082013916666668,0x21,,
37.083056249999998,0xC2,,
37.084202750000003,0x00,,
37.085349250000000,0x02,,
37.086391583333331,0x00,,
37.087433833333336,0x02,,
37.088476166666666,0x10,,
37.089518416666664,0x30,,
37.090560750000002,0x02,,
37.091602999999999,0x3E,,
37.092645333333330,0x65,,
37.099958083333334,0x01,,
37.101002250000001,0x26,,
37.102046166666668,0x00,,
37.103090083333335,0x10,,
37.104134083333335,0x21,,
37.105178000000002,0xFE,,
37.106221916666669,0x86,,
37.107265833333337,0x00,,
37.108309749999997,0x02,,
37.109353666666664,0x00,,
37.110397583333331,0x1E,,
37.111441499999998,0x10,,
37.112485416666665,0x30,,
37.113529333333332,0x02,,
37.114573249999999,0x00,,
37.115617166666667,0x00,,
37.116661166666667,0x10,,
37.117705083333334,0x21,,
37.118749000000001,0x0F,,
37.119792916666668,0x06,,
37.120836833333335,0x00,,
37.121880750000003,0x2A,,
37.122924666666670,0xF8,,
37.123968583333337,0x23,,
37.125012499999997,0x28,,
37.126056416666664,0x03,,
37.127100333333331,0xE8,,
37.128144249999998,0x46,,
37.129188249999999,0x55,,
37.130232166666666,0x10,,
37.131276083333333,0x25,,
37.132320000000000,0x06,,
37.133363916666667,0x04,,
37.134407833333334,0x02,,
37.135451750000001,0x00,,
37.136495666666669,0x00,,
37.137539583333336,0x00,,
37.138583500000003,0x00,,
37.139627416666670,0x00,,
37.140671333333330,0x02,,
37.141715249999997,0x00,,
37.142759249999997,0x00,,
37.143803166666665,0x18,,
37.144847083333332,0x00,,
37.145890999999999,0x2C,,
37.146934916666666,0x70,,
39.508465833333332,0x55,,
39.509508166666670,0x01,,
39.510550416666668,0x0A,,
39.511592749999998,0x00,,
39.512635083333336,0xFE,,
39.513677333333334,0x10,,
39.514719583333331,0x21,,
39.515970333333335,0xC0,,
39.517012666666666,0x00,,
39.518054916666664,0x03,,
39.519097250000002,0x00,,
39.520139499999999,0x02,,
39.521181833333330,0x30,,
39.522224083333334,0x02,,
39.523266416666665,0x39,,
39.524308666666670,0xA5,,
39.530838666666668,0x01,,
39.531882833333334,0x07,,
39.532926750000001,0x00,,
39.533970666666669,0x10,,
39.535014583333336,0x21,,
39.536058500000003,0xFE,,
39.537102416666670,0x90,,
39.538146333333330,0x00,,
39.539190249999997,0x03,,
39.540234166666664,0x00,,
39.541278083333331,0x10,,
39.542322083333332,0x25,,
39.543365999999999,0xF5,,
40.249013166666664,0x55,,
40.250055416666669,0x01,,
40.251097750000000,0x0C,,
40.252139999999997,0x00,,
40.253182333333335,0xFE,,
40.254224583333333,0x10,,
40.255371166666670,0x21,,
40.256413416666668,0xC0,,
40.257455749999998,0x00,,
40.258498000000003,0x04,,
40.259540250000001,0x00,,
40.260582583333331,0x04,,
40.261624833333336,0x30,,
40.262667166666667,0x10,,
40.263709416666664,0x21,,
40.264751750000002,0x00,,
40.266002416666666,0x00,,
40.267044749999997,0xDC,,
40.268087083333334,0xEB,,
40.277035249999997,0x01,,
40.278079416666664,0x07,,
40.279123333333331,0x00,,
40.280167249999998,0x10,,
40.281211166666665,0x21,,
40.282255083333332,0xFE,,
40.283299000000000,0x90,,
40.284343000000000,0x00,,
40.285386916666667,0x04,,
40.286430833333334,0x00,,
40.287474750000001,0x07,,
40.288518666666668,0xC5,,
40.296020416666664,0x55,,
40.297062750000002,0x01,,
40.298313499999999,0x0A,,
40.299355749999997,0x00,,
40.300398083333334,0xFE,,
40.301440333333332,0x10,,
40.302482666666670,0x21,,
40.303524916666667,0xC2,,
40.304567249999998,0x00,,
40.305713750000002,0x10,,
40.307068749999999,0x25,,
40.308110999999997,0x00,,
40.309153333333335,0x02,,
40.310195499999999,0x50,,
40.311237916666670,0x0B,,
40.312280166666667,0x7A,,
40.313322499999998,0x63,,
40.320671249999997,0x01,,
40.321715416666663,0x12,,
40.322759333333330,0x00,,
40.323803249999997,0x10,,
40.324847166666665,0x21,,
40.325891083333332,0xFE,,
40.326935083333332,0x86,,
40.327978999999999,0x00,,
40.329022916666666,0x10,,
40.330066833333333,0x25,,
40.331110750000001,0x00,,
40.332154666666668,0x0A,,
40.333198583333335,0x50,,
40.334242500000002,0x0B,,
40.335286416666669,0x00,,
40.336330333333336,0x00,,
40.337374250000003,0x00,,
40.338418166666663,0x04,,
40.339462166666664,0x00,,
40.340506083333331,0x00,,
40.341549999999998,0x00,,
40.342593916666665,0x00,,
40.343637833333332,0x3B,,
40.344681749999999,0xBE,,
40.353763333333333,0x55,,
40.354805583333331,0x01,,
40.355952166666668,0x0C,,
40.357307166666665,0x00,,
40.358349416666670,0xFE,,
40.359391750000000,0x10,,
40.360433999999998,0x21,,
40.361476250000003,0xC0,,
40.362518583333333,0x00,,
40.363560833333331,0x06,,
40.364603166666669,0x00,,
40.365749666666666,0x04,,
40.367104583333337,0x30,,
40.368146916666667,0x00,,
40.369189249999998,0x00,,
40.370231500000003,0x00,,
40.371273833333333,0xAE,,
40.372316083333331,0xEB,,
40.380174916666668,0x01,,
40.381219083333335,0x07,,
40.382263000000002,0x00,,
40.383306916666669,0x10,,
40.384350833333336,0x21,,
40.385394750000003,0xFE,,
40.386438666666663,0x90,,
40.387482583333330,0x00,,
40.388526499999998,0x06,,
40.389570499999998,0x00,,
40.390614416666665,0x06,,
40.391658333333332,0xA5,,
40.399102999999997,0x55,,
40.400145250000001,0x01,,
40.401187583333332,0x0A,,
40.402229833333337,0x00,,
40.403480583333334,0xFE,,
40.404522916666664,0x10,,
40.405773666666668,0x21,,
40.407128583333332,0xC2,,
40.408170916666670,0x00,,
40.409213166666667,0x07,,
40.410255499999998,0x00,,
40.411297750000003,0x02,,
40.412340083333333,0x50,,
40.413382333333331,0x0B,,
40.414424666666669,0x03,,
40.415571166666666,0xA3,,
40.421305500000003,0x01,,
40.422349666666669,0x12,,
40.423393583333336,0x00,,
40.424437500000003,0x10,,
40.425481416666663,0x21,,
40.426525333333331,0xFE,,
40.427569249999998,0x86,,
40.428613166666665,0x00,,
40.429657166666665,0x07,,
40.430701083333332,0x00,,
40.431744999999999,0x0A,,
40.432788916666667,0x50,,
40.433832833333334,0x0B,,
40.434876750000001,0x00,,
40.435920666666668,0x00,,
40.436964583333335,0x00,,
40.438008500000002,0x00,,
40.439052416666669,0x20,,
40.440096333333337,0x04,,
40.441140249999997,0x00,,
40.442184249999997,0x10,,
40.443228166666664,0x30,,
40.444272083333331,0x86,,
40.445315999999998,0xF1,,
40.453927416666666,0x55,,
40.454969583333330,0x01,,
40.456116250000001,0x0C,,
40.457158499999998,0x00,,
40.458200833333336,0xFE,,
40.459243083333334,0x10,,
40.460285416666665,0x21,,
40.461327666666669,0xC0,,
40.462370000000000,0x00,,
40.463412249999998,0x08,,
40.464454583333335,0x00,,
40.465601083333333,0x04,,
40.466643416666663,0x30,,
40.467685666666668,0x10,,
40.468727999999999,0x21,,
40.469770250000003,0x00,,
40.470812500000001,0x10,,
40.471854833333332,0x21,,
40.472897083333336,0xD1,,
40.473939416666667,0x2B,,
40.479973999999999,0x01,,
40.481018166666665,0x07,,
40.482062083333332,0x00,,
40.483105999999999,0x10,,
40.484149916666667,0x21,,
40.485193833333334,0xFE,,
40.486237750000001,0x90,,
40.487281750000001,0x00,,
40.488325666666668,0x08,,
40.489369583333335,0x00,,
40.490413500000003,0x02,,
40.491457416666670,0xC5,,
40.498954416666663,0x55,,
40.499996666666668,0x01,,
40.501247416666665,0x0A,,
40.502289666666670,0x00,,
40.503332000000000,0xFE,,
40.504374333333331,0x10,,
40.505520833333335,0x21,,
40.506563083333333,0xC2,,
40.507605416666664,0x00,,
40.508647666666668,0x09,,
40.509689999999999,0x00,,
40.510732249999997,0x02,,
40.511774583333334,0x50,,
40.512816833333332,0x0B,,
40.513859166666670,0x6A,,
40.514901416666667,0x62,,
40.521104583333333,0x01,,
40.522148749999999,0x12,,
40.523192666666667,0x00,,
40.524236583333334,0x10,,
40.525280500000001,0x21,,
40.526324416666668,0xFE,,
40.527368416666668,0x86,,
40.528412333333335,0x00,,
40.529456250000003,0x09,,
40.530500166666670,0x00,,
40.531544083333330,0x0A,,
40.532587999999997,0x50,,
40.533631916666664,0x0B,,
40.534675833333331,0x00,,
40.535719749999998,0x00,,
40.536763666666666,0x00,,
40.537807583333333,0x00,,
40.538851500000000,0x00,,
40.539895500000000,0x00,,
40.540939416666667,0x00,,
40.541983333333334,0x00,,
40.543027250000002,0xDB,,
40.544071166666669,0xB2,,
40.551798499999997,0x55,,
40.552945000000001,0x01,,
40.554195749999998,0x0C,,
40.555238083333336,0x00,,
40.556280333333333,0xFE,,
40.557322666666664,0x10,,
40.558364916666669,0x21,,
40.559407250000000,0xC0,,
40.560449499999997,0x00,,
40.561491833333335,0x0A,,
40.562534083333333,0x00,,
40.563576416666663,0x04,,
40.564618666666668,0x30,,
40.565869416666665,0x00,,
40.567224416666669,0x00,,
40.568266666666666,0x10,,
40.569308999999997,0x21,,
40.570351250000002,0xA3,,
40.571393583333332,0x2B,,
40.579564333333330,0x01,,
40.580608499999997,0x07,,
40.581652416666664,0x00,,
40.582696333333331,0x10,,
40.583740249999998,0x21,,
40.584784166666665,0xFE,,
40.585828083333332,0x90,,
40.586872000000000,0x00,,
40.587915916666667,0x0A,,
40.588959833333334,0x00,,
40.590003833333334,0x03,,
40.591047750000001,0xA5,,
40.598493083333331,0x55,,
40.599535416666669,0x01,,
40.600577666666666,0x0A,,
40.601619999999997,0x00,,
40.602662250000002,0xFE,,
40.603704583333332,0x10,,
40.604746833333330,0x21,,
40.605893333333334,0xC2,,
40.607248333333331,0x00,,
40.608290666666669,0x0B,,
40.609332916666666,0x00,,
40.610375249999997,0x02,,
40.611417500000002,0x50,,
40.612459833333332,0x0B,,
40.613502083333330,0x13,,
40.614544416666668,0xA2,,
40.620694916666665,0x01,,
40.621739083333331,0x12,,
40.622782999999998,0x00,,
40.623826916666665,0x10,,
40.624870833333333,0x21,,
40.625914750000000,0xFE,,
40.626958666666667,0x86,,
40.628002583333334,0x00,,
40.629046583333334,0x0B,,
40.630090500000001,0x00,,
40.631134416666669,0x0A,,
40.632178333333336,0x50,,
40.633222250000003,0x0B,,
40.634266166666670,0x00,,
40.635310083333330,0x00,,
40.636353999999997,0x00,,
40.637397916666664,0x00,,
40.638441833333331,0x20,,
40.639485749999999,0x04,,
40.640529666666666,0x00,,
40.641573583333333,0x10,,
40.642617583333333,0x30,,
40.643661500000000,0x97,,
40.644705416666667,0x3D,,
40.653838749999998,0x55,,
40.654881000000003,0x01,,
40.655923333333334,0x0C,,
40.657278249999997,0x00,,
40.658320583333335,0xFE,,
40.659362833333333,0x10,,
40.660405166666663,0x21,,
40.661447416666668,0xC0,,
40.662489749999999,0x00,,
40.663531999999996,0x0C,,
40.664574333333334,0x00,,
40.665720833333332,0x04,,
40.666763083333336,0x30,,
40.667805416666667,0x10,,
40.668847666666665,0x21,,
40.669890000000002,0x00,,
40.670932250000000,0x03,,
40.671974583333331,0x15,,
40.673016833333335,0x2A,,
40.681868833333333,0x01,,
40.682912999999999,0x07,,
40.683956916666666,0x00,,
40.685000833333334,0x10,,
40.686044750000001,0x21,,
40.687088666666668,0xFE,,
40.688132583333335,0x90,,
40.689176583333335,0x00,,
40.690220500000002,0x0C,,
40.691264416666669,0x00,,
40.692308333333337,0x00,,
40.693352249999997,0x10,,
40.694396166666664,0x25,,
40.703243250000000,0x55,,
40.704285583333331,0x01,,
40.705327833333335,0x0A,,
40.706370166666666,0x00,,
40.707412416666664,0xFE,,
40.708454750000001,0x10,,
40.709496999999999,0x21,,
40.710539333333337,0xC2,,
40.711581583333334,0x00,,
40.712623916666665,0x0D,,
40.713666166666670,0x00,,
40.714708500000000,0x02,,
40.715959249999997,0x50,,
40.717522666666667,0x0B,,
40.718564999999998,0x9B,,
40.719607250000003,0xA2,,
40.726548749999999,0x01,,
40.727592916666666,0x12,,
40.728636833333333,0x00,,
40.729680750000000,0x10,,
40.730724666666667,0x21,,
40.731768583333334,0xFE,,
40.732812583333335,0x86,,
40.733856500000002,0x00,,
40.734900416666669,0x0D,,
40.735944333333336,0x00,,
40.736988250000003,0x0A,,
40.738032166666663,0x50,,
40.739076083333330,0x0B,,
40.740119999999997,0x00,,
40.741163916666665,0x00,,
40.742207833333332,0x00,,
40.743251749999999,0x00,,
40.744295749999999,0x00,,
40.745339666666666,0x00,,
40.746383583333333,0x00,,
40.747427500000001,0x00,,
40.748471416666668,0xD5,,
40.749515333333335,0x36,,
40.757233916666664,0x55,,
40.758276250000002,0x01,,
40.759318499999999,0x0C,,
40.760360833333330,0x00,,
40.761403083333335,0xFE,,
40.762445416666665,0x10,,
40.763487666666670,0x21,,
40.764530000000001,0xC0,,
40.765676499999998,0x00,,
40.766718750000003,0x0E,,
40.767761083333333,0x00,,
40.768803333333331,0x04,,
40.769845666666669,0x30,,
40.770887916666666,0x00,,
40.771930249999997,0x00,,
40.772972500000002,0x03,,
40.774014833333332,0x67,,
40.775057083333330,0x2A,,
40.783338166666667,0x01,,
40.784382333333333,0x07,,
40.785426333333334,0x00,,
40.786470250000001,0x10,,
40.787514166666668,0x21,,
40.788558083333335,0xFE,,
40.789602000000002,0x90,,
40.790645916666669,0x00,,
40.791689833333336,0x0E,,
40.792733749999996,0x00,,
40.793777666666664,0x10,,
40.794821583333331,0x21,,
40.795865499999998,0x65,,
40.803824249999998,0x55,,
40.804866583333336,0x01,,
40.806013083333333,0x0A,,
40.807368083333330,0x00,,
40.808410416666668,0xFE,,
40.809452666666665,0x10,,
40.810495000000003,0x21,,
40.811537250000001,0xC2,,
40.812579499999998,0x00,,
40.813621833333336,0x0F,,
40.814664083333334,0x00,,
40.815810666666664,0x02,,
40.816852916666669,0x50,,
40.817895249999999,0x0B,,
40.818937499999997,0xE2,,
40.819979833333335,0x62,,
40.826347833333337,0x01,,
40.827392000000003,0x12,,
40.828435916666663,0x00,,
40.829479916666664,0x10,,
40.830523833333331,0x21,,
40.831567749999998,0xFE,,
40.832611666666665,0x86,,
40.833655583333332,0x00,,
40.834699499999999,0x0F,,
40.835743416666666,0x00,,
40.836787333333334,0x0A,,
40.837831250000001,0x50,,
40.838875166666668,0x0B,,
40.839919083333335,0x00,,
40.840963000000002,0x00,,
40.842007000000002,0x00,,
40.843050916666670,0x00,,
40.844094833333337,0x20,,
40.845138749999997,0x04,,
40.846182666666664,0x00,,
40.847226583333331,0x10,,
40.848270499999998,0x30,,
40.849314416666665,0x99,,
40.850358333333332,0xB9,,
40.858231833333335,0x55,,
40.859274166666665,0x01,,
40.860524916666670,0x0C,,
40.861567166666667,0x00,,
40.862609499999998,0xFE,,
40.863651750000002,0x10,,
40.864694083333333,0x21,,
40.865840583333330,0xC0,,
40.866882833333335,0x00,,
40.867925166666666,0x10,,
40.868967499999997,0x30,,
40.870009750000001,0x00,,
40.871051999999999,0x04,,
40.872094333333337,0x30,,
40.873136583333334,0x10,,
40.874178916666665,0x21,,
40.875221166666670,0x00,,
40.876367750000000,0x04,,
40.877409999999998,0x89,,
40.878452250000002,0x29,,
40.884181249999997,0x01,,
40.885225416666664,0x07,,
40.886269333333331,0x00,,
40.887313249999998,0x10,,
40.888357166666665,0x21,,
40.889401083333333,0xFE,,
40.890445000000000,0x90,,
40.891488916666667,0x00,,
40.892532833333334,0x10,,
40.893576750000001,0x30,,
40.894620666666668,0x00,,
40.895664666666669,0x08,,
40.896708583333336,0xC5,,
40.904196833333330,0x55,,
40.905239166666668,0x01,,
40.906385666666665,0x0A,,
40.907428000000003,0x00,,
40.908470250000001,0xFE,,
40.909512583333331,0x10,,
40.910554833333336,0x21,,
40.911597083333334,0xC2,,
40.912639416666664,0x00,,
40.913681666666669,0x11,,
40.914724000000000,0x00,,
40.915870499999997,0x02,,
40.916912833333335,0x50,,
40.917955083333332,0x0B,,
40.918997416666670,0x4A,,
40.920039666666668,0x60,,
40.926355749999999,0x01,,
40.927399916666666,0x12,,
40.928443833333333,0x00,,
40.929487750000000,0x10,,
40.930531666666667,0x21,,
40.931575583333334,0xFE,,
40.932619500000001,0x86,,
40.933663416666668,0x00,,
40.934707416666669,0x11,,
40.935751333333336,0x00,,
40.936795250000003,0x0A,,
40.937839166666670,0x50,,
40.938883083333330,0x0B,,
40.939926999999997,0x00,,
40.940970916666664,0x00,,
40.942014833333332,0x00,,
40.943058749999999,0x00,,
40.944102666666666,0x00,,
40.945146583333333,0x00,,
40.946190500000000,0x00,,
40.947234500000000,0x00,,
40.948278416666668,0xFA,,
40.949322333333335,0x6A,,
40.957040999999997,0x55,,
40.958083250000001,0x01,,
40.959125583333332,0x0C,,
40.960167833333337,0x00,,
40.961210166666667,0xFE,,
40.962252416666665,0x10,,
40.963294750000003,0x21,,
40.964337000000000,0xC0,,
40.965379333333331,0x00,,
40.966421583333336,0x12,,
40.967463916666667,0x00,,
40.968506166666664,0x04,,
40.969548500000002,0x30,,
40.970590750000000,0x00,,
40.971633083333330,0x00,,
40.972675333333335,0x04,,
40.973717583333332,0xFB,,
40.974759916666663,0x29,,
40.982310083333331,0x01,,
40.983354249999998,0x07,,
40.984398166666665,0x00,,
40.985442083333332,0x10,,
40.986485999999999,0x21,,
40.987529916666666,0xFE,,
40.988573833333334,0x90,,
40.989617750000001,0x00,,
40.990661666666668,0x12,,
40.991705583333335,0x00,,
40.992749500000002,0x09,,
40.993793416666669,0xA5,,
41.001234083333337,0x55,,
41.002276416666668,0x01,,
41.003318666666665,0x0A,,
41.004360916666670,0x00,,
41.005403250000001,0xFE,,
41.006445583333331,0x10,,
41.007487833333336,0x21,,
41.008530166666667,0xC2,,
41.009572416666664,0x00,,
41.010614666666669,0x13,,
41.011657000000000,0x00,,
41.012699249999997,0x02,,
41.013741583333335,0x50,,
41.014783833333333,0x0B,,
41.015930416666670,0x33,,
41.016972666666668,0xA0,,
41.023440666666666,0x01,,
41.024484833333332,0x12,,
41.025528749999999,0x00,,
41.026572666666667,0x10,,
41.027616583333334,0x21,,
41.028660500000001,0xFE,,
41.029704416666668,0x86,,
41.030748333333335,0x00,,
41.031792250000002,0x13,,
41.032836166666669,0x00,,
41.033880083333337,0x0A,,
41.034924083333337,0x50,,
41.035967999999997,0x0B,,
41.037011916666664,0x00,,
41.038055833333331,0x00,,
41.039099749999998,0x00,,
41.040143666666665,0x00,,
41.041187583333333,0x20,,
41.042231500000000,0x04,,
41.043275416666667,0x00,,
41.044319333333334,0x10,,
41.045363250000001,0x30,,
41.046407166666668,0xB6,,
41.047451166666669,0xE5,,
